! Create 01-Jun-2022 12:40:17 
! 2-port S-parameter file, 101 frequency points
# Hz S RI R 50
!freq        RelS11        ImS11          ReS21        ImS21        ReS12        ImS12        ReS22        ImS22
2000000000 -3.400000e-01 5.150000e-01 5.137000e+00 -1.408000e+00 1.000000e-03 -3.500000e-02 -5.170000e-01 4.800000e-02
2020000000 -3.200000e-01 5.320000e-01 4.886000e+00 -1.542000e+00 -4.621000e-04 -3.600000e-02 -5.230000e-01 6.100000e-02
2040000000 -2.930000e-01 5.490000e-01 4.683000e+00 -1.707000e+00 -2.000000e-03 -3.700000e-02 -5.240000e-01 7.300000e-02
2060000000 -2.620000e-01 5.670000e-01 4.581000e+00 -1.892000e+00 -3.000000e-03 -3.700000e-02 -5.230000e-01 8.900000e-02
2080000000 -2.300000e-01 5.850000e-01 4.466000e+00 -2.075000e+00 -5.000000e-03 -3.700000e-02 -5.180000e-01 1.050000e-01
2100000000 -1.990000e-01 5.980000e-01 4.346000e+00 -2.230000e+00 -6.000000e-03 -3.700000e-02 -5.180000e-01 1.180000e-01
2120000000 -1.680000e-01 6.120000e-01 4.283000e+00 -2.413000e+00 -7.000000e-03 -3.600000e-02 -5.150000e-01 1.300000e-01
2140000000 -1.390000e-01 6.230000e-01 4.149000e+00 -2.564000e+00 -9.000000e-03 -3.600000e-02 -5.150000e-01 1.430000e-01
2160000000 -1.050000e-01 6.330000e-01 4.027000e+00 -2.717000e+00 -1.000000e-02 -3.600000e-02 -5.140000e-01 1.570000e-01
2180000000 -7.100000e-02 6.400000e-01 3.857000e+00 -2.859000e+00 -1.100000e-02 -3.600000e-02 -5.120000e-01 1.750000e-01
2200000000 -3.700000e-02 6.470000e-01 3.732000e+00 -3.007000e+00 -1.300000e-02 -3.600000e-02 -5.100000e-01 1.880000e-01
2220000000 -4.000000e-03 6.530000e-01 3.612000e+00 -3.155000e+00 -1.400000e-02 -3.500000e-02 -5.030000e-01 1.980000e-01
2240000000 3.100000e-02 6.560000e-01 3.449000e+00 -3.271000e+00 -1.500000e-02 -3.400000e-02 -5.000000e-01 2.120000e-01
2260000000 6.500000e-02 6.580000e-01 3.292000e+00 -3.387000e+00 -1.600000e-02 -3.300000e-02 -4.970000e-01 2.270000e-01
2280000000 9.900000e-02 6.570000e-01 3.109000e+00 -3.470000e+00 -1.700000e-02 -3.300000e-02 -4.890000e-01 2.420000e-01
2300000000 1.320000e-01 6.540000e-01 2.931000e+00 -3.559000e+00 -1.800000e-02 -3.200000e-02 -4.830000e-01 2.560000e-01
2320000000 1.680000e-01 6.520000e-01 2.786000e+00 -3.673000e+00 -1.900000e-02 -3.200000e-02 -4.790000e-01 2.720000e-01
2340000000 2.000000e-01 6.460000e-01 2.600000e+00 -3.717000e+00 -2.000000e-02 -3.100000e-02 -4.710000e-01 2.840000e-01
2360000000 2.330000e-01 6.400000e-01 2.452000e+00 -3.809000e+00 -2.100000e-02 -3.000000e-02 -4.640000e-01 2.980000e-01
2380000000 2.640000e-01 6.310000e-01 2.251000e+00 -3.833000e+00 -2.300000e-02 -2.900000e-02 -4.550000e-01 3.130000e-01
2400000000 2.950000e-01 6.220000e-01 2.079000e+00 -3.883000e+00 -2.400000e-02 -2.900000e-02 -4.460000e-01 3.280000e-01
2420000000 3.260000e-01 6.090000e-01 1.914000e+00 -3.924000e+00 -2.500000e-02 -2.800000e-02 -4.350000e-01 3.390000e-01
2440000000 3.540000e-01 5.960000e-01 1.736000e+00 -3.925000e+00 -2.500000e-02 -2.700000e-02 -4.250000e-01 3.520000e-01
2460000000 3.870000e-01 5.810000e-01 1.590000e+00 -3.995000e+00 -2.600000e-02 -2.600000e-02 -4.170000e-01 3.630000e-01
2480000000 4.140000e-01 5.640000e-01 1.406000e+00 -3.972000e+00 -2.700000e-02 -2.500000e-02 -4.080000e-01 3.730000e-01
2500000000 4.430000e-01 5.470000e-01 1.265000e+00 -4.018000e+00 -2.700000e-02 -2.400000e-02 -3.990000e-01 3.820000e-01
2520000000 4.700000e-01 5.280000e-01 1.094000e+00 -4.018000e+00 -2.800000e-02 -2.300000e-02 -3.880000e-01 3.930000e-01
2540000000 4.940000e-01 5.080000e-01 9.280000e-01 -4.003000e+00 -2.900000e-02 -2.200000e-02 -3.760000e-01 4.040000e-01
2560000000 5.200000e-01 4.860000e-01 8.250000e-01 -4.084000e+00 -2.800000e-02 -2.000000e-02 -3.650000e-01 4.070000e-01
2580000000 5.400000e-01 4.660000e-01 6.330000e-01 -3.983000e+00 -3.000000e-02 -2.000000e-02 -3.530000e-01 4.220000e-01
2600000000 5.620000e-01 4.430000e-01 4.770000e-01 -3.957000e+00 -3.100000e-02 -1.900000e-02 -3.420000e-01 4.350000e-01
2620000000 5.810000e-01 4.210000e-01 3.290000e-01 -3.933000e+00 -3.100000e-02 -1.700000e-02 -3.280000e-01 4.410000e-01
2640000000 5.990000e-01 3.980000e-01 1.940000e-01 -3.909000e+00 -3.100000e-02 -1.600000e-02 -3.150000e-01 4.490000e-01
2660000000 6.160000e-01 3.750000e-01 5.600000e-02 -3.891000e+00 -3.100000e-02 -1.500000e-02 -3.040000e-01 4.580000e-01
2680000000 6.310000e-01 3.510000e-01 -7.900000e-02 -3.835000e+00 -3.200000e-02 -1.400000e-02 -2.910000e-01 4.650000e-01
2700000000 6.470000e-01 3.250000e-01 -2.200000e-01 -3.783000e+00 -3.300000e-02 -1.300000e-02 -2.800000e-01 4.740000e-01
2720000000 6.600000e-01 2.990000e-01 -3.480000e-01 -3.765000e+00 -3.200000e-02 -1.200000e-02 -2.710000e-01 4.810000e-01
2740000000 6.730000e-01 2.730000e-01 -4.720000e-01 -3.715000e+00 -3.200000e-02 -1.100000e-02 -2.590000e-01 4.860000e-01
2760000000 6.850000e-01 2.460000e-01 -5.980000e-01 -3.702000e+00 -3.200000e-02 -1.000000e-02 -2.510000e-01 4.920000e-01
2780000000 6.930000e-01 2.200000e-01 -7.130000e-01 -3.617000e+00 -3.200000e-02 -9.000000e-03 -2.390000e-01 4.960000e-01
2800000000 7.010000e-01 1.930000e-01 -8.360000e-01 -3.528000e+00 -3.300000e-02 -8.000000e-03 -2.220000e-01 5.020000e-01
2820000000 7.080000e-01 1.660000e-01 -9.480000e-01 -3.464000e+00 -3.300000e-02 -7.000000e-03 -2.100000e-01 5.090000e-01
2840000000 7.140000e-01 1.410000e-01 -1.063000e+00 -3.396000e+00 -3.300000e-02 -6.000000e-03 -1.950000e-01 5.160000e-01
2860000000 7.180000e-01 1.160000e-01 -1.166000e+00 -3.350000e+00 -3.200000e-02 -5.000000e-03 -1.850000e-01 5.180000e-01
2880000000 7.210000e-01 9.400000e-02 -1.265000e+00 -3.276000e+00 -3.200000e-02 -4.000000e-03 -1.730000e-01 5.250000e-01
2900000000 7.230000e-01 6.900000e-02 -1.357000e+00 -3.178000e+00 -3.200000e-02 -3.000000e-03 -1.590000e-01 5.280000e-01
2920000000 7.230000e-01 4.300000e-02 -1.447000e+00 -3.076000e+00 -3.200000e-02 -2.000000e-03 -1.410000e-01 5.340000e-01
2940000000 7.240000e-01 1.800000e-02 -1.550000e+00 -3.015000e+00 -3.200000e-02 -1.000000e-03 -1.280000e-01 5.380000e-01
2960000000 7.230000e-01 -7.000000e-03 -1.635000e+00 -2.959000e+00 -3.100000e-02 -1.401000e-04 -1.170000e-01 5.390000e-01
2980000000 7.230000e-01 -2.900000e-02 -1.720000e+00 -2.902000e+00 -3.100000e-02 1.000000e-03 -1.080000e-01 5.440000e-01
3000000000 7.200000e-01 -5.400000e-02 -1.796000e+00 -2.806000e+00 -3.000000e-02 1.000000e-03 -9.800000e-02 5.490000e-01
3020000000 7.200000e-01 -8.000000e-02 -1.792000e+00 -2.668000e+00 -3.100000e-02 2.000000e-03 -8.400000e-02 5.530000e-01
3040000000 7.170000e-01 -1.040000e-01 -1.840000e+00 -2.551000e+00 -3.000000e-02 4.000000e-03 -6.800000e-02 5.580000e-01
3060000000 7.050000e-01 -1.220000e-01 -1.998000e+00 -2.487000e+00 -3.000000e-02 4.000000e-03 -5.500000e-02 5.570000e-01
3080000000 7.010000e-01 -1.440000e-01 -2.079000e+00 -2.440000e+00 -2.900000e-02 5.000000e-03 -4.300000e-02 5.590000e-01
3100000000 6.940000e-01 -1.630000e-01 -2.131000e+00 -2.349000e+00 -2.900000e-02 5.000000e-03 -2.900000e-02 5.630000e-01
3120000000 6.870000e-01 -1.860000e-01 -2.215000e+00 -2.305000e+00 -2.800000e-02 6.000000e-03 -1.700000e-02 5.630000e-01
3140000000 6.790000e-01 -2.030000e-01 -2.220000e+00 -2.132000e+00 -2.800000e-02 7.000000e-03 2.000000e-03 5.660000e-01
3160000000 6.710000e-01 -2.220000e-01 -2.254000e+00 -2.019000e+00 -2.800000e-02 8.000000e-03 1.800000e-02 5.640000e-01
3180000000 6.620000e-01 -2.400000e-01 -2.311000e+00 -1.939000e+00 -2.700000e-02 9.000000e-03 3.400000e-02 5.630000e-01
3200000000 6.540000e-01 -2.570000e-01 -2.374000e+00 -1.891000e+00 -2.600000e-02 9.000000e-03 4.300000e-02 5.650000e-01
3220000000 6.380000e-01 -2.820000e-01 -2.452000e+00 -1.815000e+00 -2.500000e-02 8.000000e-03 5.800000e-02 5.570000e-01
3240000000 6.290000e-01 -3.010000e-01 -2.409000e+00 -1.682000e+00 -2.500000e-02 1.000000e-02 7.600000e-02 5.570000e-01
3260000000 6.180000e-01 -3.170000e-01 -2.424000e+00 -1.563000e+00 -2.500000e-02 1.000000e-02 9.200000e-02 5.560000e-01
3280000000 6.050000e-01 -3.300000e-01 -2.489000e+00 -1.471000e+00 -2.400000e-02 1.100000e-02 1.070000e-01 5.540000e-01
3300000000 5.950000e-01 -3.450000e-01 -2.521000e+00 -1.398000e+00 -2.400000e-02 1.100000e-02 1.190000e-01 5.510000e-01
3320000000 5.820000e-01 -3.600000e-01 -2.553000e+00 -1.318000e+00 -2.300000e-02 1.100000e-02 1.280000e-01 5.520000e-01
3340000000 5.710000e-01 -3.740000e-01 -2.552000e+00 -1.220000e+00 -2.300000e-02 1.200000e-02 1.420000e-01 5.530000e-01
3360000000 5.580000e-01 -3.860000e-01 -2.547000e+00 -1.112000e+00 -2.200000e-02 1.300000e-02 1.590000e-01 5.500000e-01
3380000000 5.470000e-01 -4.010000e-01 -2.503000e+00 -1.009000e+00 -2.200000e-02 1.300000e-02 1.740000e-01 5.470000e-01
3400000000 5.350000e-01 -4.090000e-01 -2.559000e+00 -9.330000e-01 -2.100000e-02 1.300000e-02 1.870000e-01 5.400000e-01
3420000000 5.240000e-01 -4.200000e-01 -2.574000e+00 -8.530000e-01 -2.100000e-02 1.300000e-02 2.020000e-01 5.390000e-01
3440000000 5.110000e-01 -4.300000e-01 -2.571000e+00 -7.700000e-01 -2.000000e-02 1.400000e-02 2.140000e-01 5.340000e-01
3460000000 4.970000e-01 -4.410000e-01 -2.550000e+00 -6.780000e-01 -2.000000e-02 1.400000e-02 2.310000e-01 5.280000e-01
3480000000 4.820000e-01 -4.520000e-01 -2.523000e+00 -5.810000e-01 -1.900000e-02 1.500000e-02 2.450000e-01 5.220000e-01
3500000000 4.680000e-01 -4.620000e-01 -2.525000e+00 -5.010000e-01 -1.900000e-02 1.500000e-02 2.570000e-01 5.150000e-01
3520000000 4.560000e-01 -4.710000e-01 -2.529000e+00 -4.320000e-01 -1.800000e-02 1.500000e-02 2.690000e-01 5.120000e-01
3540000000 4.430000e-01 -4.790000e-01 -2.524000e+00 -3.530000e-01 -1.800000e-02 1.500000e-02 2.800000e-01 5.090000e-01
3560000000 4.310000e-01 -4.870000e-01 -2.502000e+00 -2.850000e-01 -1.700000e-02 1.600000e-02 2.910000e-01 5.050000e-01
3580000000 4.160000e-01 -4.940000e-01 -2.475000e+00 -1.980000e-01 -1.600000e-02 1.600000e-02 3.050000e-01 5.000000e-01
3600000000 4.030000e-01 -5.000000e-01 -2.446000e+00 -1.200000e-01 -1.600000e-02 1.600000e-02 3.190000e-01 4.930000e-01
3620000000 3.910000e-01 -5.070000e-01 -2.440000e+00 -5.200000e-02 -1.500000e-02 1.600000e-02 3.310000e-01 4.870000e-01
3640000000 3.780000e-01 -5.120000e-01 -2.403000e+00 1.800000e-02 -1.500000e-02 1.600000e-02 3.420000e-01 4.790000e-01
3660000000 3.680000e-01 -5.160000e-01 -2.375000e+00 8.100000e-02 -1.500000e-02 1.700000e-02 3.540000e-01 4.740000e-01
3680000000 3.540000e-01 -5.220000e-01 -2.426000e+00 1.400000e-01 -1.400000e-02 1.600000e-02 3.630000e-01 4.630000e-01
3700000000 3.410000e-01 -5.250000e-01 -2.320000e+00 2.200000e-01 -1.300000e-02 1.700000e-02 3.780000e-01 4.550000e-01
3720000000 3.270000e-01 -5.300000e-01 -2.302000e+00 2.840000e-01 -1.300000e-02 1.700000e-02 3.890000e-01 4.480000e-01
3740000000 3.140000e-01 -5.350000e-01 -2.281000e+00 3.380000e-01 -1.200000e-02 1.700000e-02 3.980000e-01 4.400000e-01
3760000000 3.030000e-01 -5.390000e-01 -2.242000e+00 3.950000e-01 -1.200000e-02 1.700000e-02 4.090000e-01 4.310000e-01
3780000000 2.910000e-01 -5.420000e-01 -2.204000e+00 4.570000e-01 -1.200000e-02 1.700000e-02 4.200000e-01 4.250000e-01
3800000000 2.790000e-01 -5.450000e-01 -2.161000e+00 5.100000e-01 -1.100000e-02 1.700000e-02 4.290000e-01 4.190000e-01
3820000000 2.660000e-01 -5.480000e-01 -2.128000e+00 5.690000e-01 -1.100000e-02 1.700000e-02 4.400000e-01 4.090000e-01
3840000000 2.540000e-01 -5.510000e-01 -2.108000e+00 6.160000e-01 -1.000000e-02 1.700000e-02 4.490000e-01 4.020000e-01
3860000000 2.430000e-01 -5.530000e-01 -2.062000e+00 6.650000e-01 -1.000000e-02 1.700000e-02 4.590000e-01 3.930000e-01
3880000000 2.320000e-01 -5.550000e-01 -2.025000e+00 7.170000e-01 -1.000000e-02 1.700000e-02 4.710000e-01 3.850000e-01
3900000000 2.220000e-01 -5.550000e-01 -1.964000e+00 7.570000e-01 -9.000000e-03 1.800000e-02 4.800000e-01 3.730000e-01
3920000000 2.100000e-01 -5.570000e-01 -1.935000e+00 8.100000e-01 -9.000000e-03 1.700000e-02 4.910000e-01 3.630000e-01
3940000000 1.980000e-01 -5.590000e-01 -1.901000e+00 8.480000e-01 -8.000000e-03 1.700000e-02 4.960000e-01 3.530000e-01
3960000000 1.860000e-01 -5.610000e-01 -1.872000e+00 8.870000e-01 -8.000000e-03 1.700000e-02 5.030000e-01 3.440000e-01
3980000000 1.740000e-01 -5.620000e-01 -1.830000e+00 9.310000e-01 -7.000000e-03 1.700000e-02 5.140000e-01 3.380000e-01
4000000000 1.630000e-01 -5.630000e-01 -1.766000e+00 9.660000e-01 -7.000000e-03 1.700000e-02 5.220000e-01 3.250000e-01
