!{R05L0R1}
!Johanson Technology Inc.
!www.johansontechnology.com
!Test Board Conditions:
!Substrate Type  RO4350B
!Substrate Thickness        10 mil
!Substrate Dk      3.66
!TL Type: GCPW 
!TL Trace Width  22 mil
!TL Gap  25 mil
!Electrode orientation      Horizontal
!DUT TOPOLOGY	SERIES
!Mounting Pad LxW         11x14.5 mil
! Created Wed Nov 25 17:33:21 2020
! 2 Port Network Data from SP1.SP block
! freq  magS11  angS11  magS21  angS21  magS12  angS12  magS22  angS22  
! 
# khz S ma R 50    
   3.00000e+02   9.99310e-01   -3.10000e-02    8.10770e-05    1.67250e+02    5.64420e-05    5.52150e+01    9.99600e-01   -1.66000e-01
   1.30000e+03   9.99976e-01    5.80000e-02    9.64246e-05    8.20500e+01    6.06088e-05    7.64470e+01    9.99976e-01    1.50000e-02
   2.30000e+03   9.99998e-01   -6.40000e-02    1.48460e-04    9.21090e+01    1.69240e-04    9.84820e+01    9.99488e-01   -9.00000e-02
   3.30000e+03   9.99998e-01   -8.50000e-02    2.29320e-04    9.15280e+01    2.51480e-04    9.15760e+01    9.99768e-01   -1.17000e-01
   4.30000e+03   9.99768e-01   -1.45000e-01    3.41589e-04    9.34430e+01    3.26659e-04    9.04070e+01    9.99998e-01   -1.47000e-01
   5.30000e+03   9.99990e-01   -1.37000e-01    3.90340e-04    9.17040e+01    3.82950e-04    9.03940e+01    9.99990e-01   -1.49000e-01
   6.30000e+03   9.99998e-01   -1.30000e-01    5.11439e-04    8.94280e+01    4.76369e-04    8.98650e+01    9.99768e-01   -1.64000e-01
   7.30000e+03   9.99878e-01   -1.51000e-01    5.02119e-04    9.09830e+01    5.18869e-04    8.80030e+01    9.99998e-01   -1.48000e-01
   8.30000e+03   9.99766e-01   -1.46000e-01    5.84318e-04    8.91370e+01    6.19648e-04    9.35050e+01    9.99996e-01   -1.64000e-01
   9.30000e+03   9.99997e-01   -1.60000e-01    6.74058e-04    8.53660e+01    6.48778e-04    9.09260e+01    9.99717e-01   -1.61000e-01
   1.03000e+04   9.99820e-01   -1.03000e-01    7.74020e-04    8.89300e+01    7.26690e-04    8.94030e+01    9.99480e-01   -1.17000e-01
   1.13000e+04   9.98620e-01   -8.50000e-02    8.25180e-04    9.04630e+01    8.54080e-04    8.87690e+01    9.98620e-01   -8.10000e-02
   1.23000e+04   9.98270e-01   -2.40000e-02    9.09490e-04    9.03490e+01    8.91050e-04    9.14870e+01    9.98040e-01   -5.80000e-02
   1.33000e+04   9.98160e-01   -4.60000e-02    9.67500e-04    9.11640e+01    1.03280e-03    8.84470e+01    9.98160e-01   -3.70000e-02
   1.43000e+04   9.98040e-01   -3.10000e-02    1.10030e-03    8.95920e+01    1.00430e-03    8.98050e+01    9.98040e-01   -5.20000e-02
   1.53000e+04   9.99120e-01   -5.60000e-02    1.12060e-03    9.27630e+01    1.13410e-03    8.96300e+01    9.98500e-01   -5.30000e-02
   1.63000e+04   9.98730e-01   -6.80000e-02    1.22040e-03    8.91430e+01    1.18400e-03    8.91090e+01    9.99110e-01   -6.60000e-02
   1.73000e+04   9.99410e-01   -8.70000e-02    1.25830e-03    8.93410e+01    1.31140e-03    8.85220e+01    9.99740e-01   -1.01000e-01
   1.83000e+04   9.99710e-01   -1.15000e-01    1.37230e-03    9.06710e+01    1.34450e-03    8.98800e+01    9.99630e-01   -1.27000e-01
   1.93000e+04   9.99996e-01   -1.54000e-01    1.40639e-03    8.82510e+01    1.45449e-03    9.02130e+01    9.99636e-01   -1.40000e-01
   2.03000e+04   9.99990e-01   -1.71000e-01    1.50720e-03    9.11300e+01    1.53400e-03    8.97000e+01    9.99890e-01   -1.87000e-01
   2.13000e+04   9.99997e-01   -1.96000e-01    1.62630e-03    8.99430e+01    1.63190e-03    9.01850e+01    9.99807e-01   -1.89000e-01
   2.23000e+04   9.99745e-01   -1.84000e-01    1.66379e-03    8.91160e+01    1.61609e-03    9.02250e+01    9.99995e-01   -2.30000e-01
   2.33000e+04   9.99990e-01   -2.18000e-01    1.71890e-03    9.02320e+01    1.77220e-03    8.96380e+01    9.99910e-01   -2.14000e-01
   2.43000e+04   9.99990e-01   -2.33000e-01    1.83060e-03    8.82480e+01    1.86370e-03    9.02920e+01    9.99780e-01   -1.72000e-01
   2.53000e+04   9.99996e-01   -2.27000e-01    1.89969e-03    8.93140e+01    1.87729e-03    8.91430e+01    9.99696e-01   -1.91000e-01
   2.63000e+04   9.99905e-01   -2.23000e-01    1.96849e-03    9.01410e+01    1.98009e-03    8.87540e+01    9.99995e-01   -2.20000e-01
   2.73000e+04   9.99886e-01   -2.19000e-01    2.03339e-03    8.86360e+01    2.02289e-03    9.05840e+01    9.99996e-01   -1.99000e-01
   2.83000e+04   9.99960e-01   -2.35000e-01    2.07360e-03    8.90330e+01    2.09730e-03    8.78880e+01    9.99930e-01   -2.05000e-01
   2.93000e+04   9.99470e-01   -2.08000e-01    2.16350e-03    9.19620e+01    2.20580e-03    8.93590e+01    9.99990e-01   -2.01000e-01
   3.03000e+04   9.99930e-01   -2.15000e-01    2.26700e-03    9.01520e+01    2.22820e-03    8.96850e+01    9.99990e-01   -1.99000e-01
   3.13000e+04   9.99990e-01   -2.13000e-01    2.27990e-03    8.93410e+01    2.30820e-03    8.96770e+01    9.99820e-01   -2.18000e-01
   3.23000e+04   9.99990e-01   -2.00000e-01    2.37900e-03    8.99010e+01    2.43980e-03    8.93420e+01    9.99730e-01   -1.94000e-01
   3.33000e+04   9.99660e-01   -2.02000e-01    2.45130e-03    8.98190e+01    2.49970e-03    9.04370e+01    9.99990e-01   -2.11000e-01
   3.43000e+04   9.99980e-01   -2.13990e-01    2.52680e-03    9.04470e+01    2.55980e-03    9.00040e+01    9.99950e-01   -2.23010e-01
   3.53000e+04   9.99838e-01   -2.08010e-01    2.61789e-03    9.13260e+01    2.63089e-03    8.97160e+01    9.99988e-01   -2.34990e-01
   3.63000e+04   9.99980e-01   -2.19010e-01    2.68940e-03    8.95670e+01    2.69960e-03    9.06390e+01    9.99980e-01   -2.29010e-01
   3.73000e+04   9.99620e-01   -2.24050e-01    2.73660e-03    8.99600e+01    2.77270e-03    8.90230e+01    9.99990e-01   -2.37010e-01
   3.83000e+04   9.99520e-01   -2.75990e-01    2.83400e-03    8.89810e+01    2.84390e-03    8.99760e+01    9.99990e-01   -2.46000e-01
   3.93000e+04   9.99550e-01   -2.65960e-01    2.82500e-03    8.94550e+01    2.92630e-03    9.02540e+01    9.99990e-01   -2.43000e-01
   4.03000e+04   9.99630e-01   -2.25080e-01    2.96070e-03    9.16180e+01    3.07700e-03    8.96880e+01    9.99980e-01   -2.38980e-01
   4.13000e+04   9.99700e-01   -3.01940e-01    2.98870e-03    8.93650e+01    3.01800e-03    8.98430e+01    9.99990e-01   -2.15060e-01
   4.23000e+04   9.99650e-01   -2.47040e-01    3.22550e-03    9.06440e+01    3.16740e-03    8.88940e+01    9.99990e-01   -2.78060e-01
   4.33000e+04   9.99960e-01   -2.82020e-01    3.18280e-03    8.90820e+01    3.22580e-03    9.12070e+01    9.99960e-01   -3.42920e-01
   4.43000e+04   9.99977e-01   -2.99990e-01    3.36769e-03    8.96240e+01    3.30339e-03    9.10090e+01    9.99857e-01   -2.67070e-01
   4.53000e+04   9.99859e-01   -2.92040e-01    3.34080e-03    8.91880e+01    3.42130e-03    9.07820e+01    9.99979e-01   -3.35980e-01
   4.63000e+04   9.99530e-01   -3.29990e-01    3.42890e-03    8.98710e+01    3.44280e-03    8.88410e+01    9.99990e-01   -3.18040e-01
   4.73000e+04   9.99750e-01   -3.20040e-01    3.48150e-03    9.11600e+01    3.53750e-03    8.92810e+01    9.99980e-01   -3.55050e-01
   4.83000e+04   9.99640e-01   -3.56030e-01    3.64040e-03    8.94920e+01    3.53400e-03    8.96500e+01    9.99980e-01   -4.01990e-01
   4.93000e+04   9.99980e-01   -3.84000e-01    3.65970e-03    8.96420e+01    3.71350e-03    8.87450e+01    9.99870e-01   -3.95980e-01
   5.03000e+04   9.99970e-01   -3.81990e-01    3.71200e-03    8.90990e+01    3.68890e-03    9.05250e+01    9.99980e-01   -3.74050e-01
   5.13000e+04   9.98670e-01   -3.76070e-01    3.83570e-03    8.95380e+01    3.75930e-03    8.85630e+01    9.99990e-01   -4.28000e-01
   5.23000e+04   9.99640e-01   -4.43010e-01    3.86690e-03    9.17080e+01    3.85130e-03    8.88470e+01    9.99980e-01   -4.24030e-01
   5.33000e+04   9.99930e-01   -4.55040e-01    4.01950e-03    8.90800e+01    3.94620e-03    8.87630e+01    9.99930e-01   -4.56040e-01
   5.43000e+04   9.98840e-01   -4.93910e-01    4.01840e-03    9.03120e+01    4.05320e-03    8.93420e+01    9.99990e-01   -4.95980e-01
   5.53000e+04   9.99747e-01   -4.02090e-01    4.08419e-03    8.90700e+01    4.03549e-03    8.85570e+01    9.99977e-01   -4.79010e-01
   5.63000e+04   9.99750e-01   -4.94970e-01    4.21260e-03    8.92900e+01    4.12390e-03    8.90170e+01    9.99980e-01   -4.89990e-01
   5.73000e+04   9.98730e-01   -4.61060e-01    4.25890e-03    8.90820e+01    4.29380e-03    9.03250e+01    9.99990e-01   -4.83990e-01
   5.83000e+04   9.99868e-01   -5.23960e-01    4.32609e-03    8.94000e+01    4.29809e-03    8.96440e+01    9.99988e-01   -4.70020e-01
   5.93000e+04   9.99978e-01   -4.85000e-01    4.37009e-03    8.93540e+01    4.56799e-03    8.93860e+01    9.99058e-01   -4.86030e-01
   6.03000e+04   9.98030e-01   -4.80020e-01    4.40160e-03    8.85270e+01    4.42400e-03    9.01490e+01    9.99990e-01   -5.13010e-01
   6.13000e+04   9.99960e-01   -5.04010e-01    4.53100e-03    8.90690e+01    4.58610e-03    8.86260e+01    9.99850e-01   -5.20040e-01
   6.23000e+04   9.99988e-01   -5.18030e-01    4.60199e-03    8.90750e+01    4.64089e-03    8.95440e+01    9.98738e-01   -5.61040e-01
   6.33000e+04   9.99977e-01   -5.49020e-01    4.60849e-03    8.89860e+01    4.70219e-03    8.83780e+01    9.99447e-01   -6.00910e-01
   6.43000e+04   9.99980e-01   -5.64040e-01    4.79010e-03    9.01470e+01    4.79900e-03    8.99050e+01    9.99500e-01   -5.16010e-01
   6.53000e+04   9.99970e-01   -6.07970e-01    4.76310e-03    8.86630e+01    4.88070e-03    9.06420e+01    9.99690e-01   -5.25030e-01
   6.63000e+04   9.99985e-01   -5.72980e-01    4.89108e-03    8.96380e+01    4.94488e-03    8.85650e+01    9.99065e-01   -5.56060e-01
   6.73000e+04   9.99980e-01   -5.52010e-01    4.99860e-03    8.93640e+01    5.08330e-03    8.96370e+01    9.99640e-01   -6.20900e-01
   6.83000e+04   9.99850e-01   -5.64000e-01    5.08150e-03    8.95170e+01    5.15030e-03    9.00960e+01    9.99970e-01   -5.18080e-01
   6.93000e+04   9.99860e-01   -5.64000e-01    5.10560e-03    8.88720e+01    5.14700e-03    9.00650e+01    9.99980e-01   -6.02010e-01
   7.03000e+04   9.97610e-01   -5.64990e-01    5.19640e-03    8.92180e+01    5.25780e-03    8.96550e+01    9.99980e-01   -6.08960e-01
   7.13000e+04   9.99980e-01   -5.60060e-01    5.30450e-03    8.85610e+01    5.33510e-03    8.99280e+01    9.99590e-01   -5.72040e-01
   7.23000e+04   9.99980e-01   -6.17980e-01    5.34500e-03    8.93540e+01    5.31130e-03    8.96250e+01    9.99350e-01   -6.08980e-01
   7.33000e+04   9.99687e-01   -6.00020e-01    5.38259e-03    9.01310e+01    5.40689e-03    8.96240e+01    9.99977e-01   -5.87980e-01
   7.43000e+04   9.98650e-01   -6.16990e-01    5.48650e-03    8.96960e+01    5.60530e-03    8.90600e+01    9.99980e-01   -5.63040e-01
   7.53000e+04   9.99457e-01   -6.08000e-01    5.58148e-03    8.97730e+01    5.69238e-03    8.93620e+01    9.99977e-01   -6.04980e-01
   7.63000e+04   9.99975e-01   -6.12980e-01    5.55517e-03    8.87700e+01    5.67977e-03    8.90990e+01    9.99225e-01   -5.87010e-01
   7.73000e+04   9.99980e-01   -5.96020e-01    5.74760e-03    8.93040e+01    5.71330e-03    8.92730e+01    9.99750e-01   -5.96990e-01
   7.83000e+04   9.98840e-01   -6.15000e-01    5.82650e-03    8.94940e+01    5.74860e-03    8.91680e+01    9.99980e-01   -5.88010e-01
   7.93000e+04   9.99830e-01   -6.13020e-01    5.88550e-03    8.98160e+01    5.91200e-03    8.91190e+01    9.99980e-01   -6.02040e-01
   8.03000e+04   9.99960e-01   -6.35020e-01    5.90860e-03    8.85140e+01    5.89850e-03    8.92150e+01    9.99850e-01   -6.40940e-01
   8.13000e+04   9.99977e-01   -6.51950e-01    6.06258e-03    8.99330e+01    6.09198e-03    8.95280e+01    9.99557e-01   -5.81020e-01
   8.23000e+04   9.99980e-01   -6.00060e-01    6.06660e-03    8.90360e+01    6.06940e-03    8.94620e+01    9.99820e-01   -6.02060e-01
   8.33000e+04   9.98830e-01   -6.57990e-01    6.18670e-03    8.85370e+01    6.17540e-03    8.95680e+01    9.99980e-01   -6.61960e-01
   8.43000e+04   9.99976e-01   -6.49030e-01    6.23007e-03    8.96030e+01    6.30217e-03    8.96660e+01    9.99346e-01   -6.17020e-01
   8.53000e+04   9.99547e-01   -6.82960e-01    6.29468e-03    8.91320e+01    6.33618e-03    8.91870e+01    9.99977e-01   -6.34020e-01
   8.63000e+04   9.99940e-01   -6.40030e-01    6.31710e-03    8.85710e+01    6.39090e-03    8.92310e+01    9.99870e-01   -6.57010e-01
   8.73000e+04   9.99956e-01   -6.74990e-01    6.44887e-03    8.88040e+01    6.50927e-03    8.90590e+01    9.99846e-01   -6.66980e-01
   8.83000e+04   9.99970e-01   -6.66030e-01    6.56680e-03    8.90920e+01    6.60940e-03    8.91150e+01    9.99480e-01   -6.48020e-01
   8.93000e+04   9.99910e-01   -6.97020e-01    6.53520e-03    8.88100e+01    6.67280e-03    8.85250e+01    9.99550e-01   -6.64050e-01
   9.03000e+04   9.99970e-01   -7.16990e-01    6.65850e-03    8.91180e+01    6.75490e-03    8.94070e+01    9.99450e-01   -7.15020e-01
   9.13000e+04   9.99515e-01   -7.11960e-01    6.82427e-03    8.90740e+01    6.79917e-03    8.94980e+01    9.99975e-01   -7.37940e-01
   9.23000e+04   9.99600e-01   -6.75050e-01    6.79610e-03    8.87350e+01    6.82430e-03    8.91420e+01    9.99570e-01   -6.81000e-01
   9.33000e+04   9.99900e-01   -7.21990e-01    6.91850e-03    8.90280e+01    6.97680e-03    8.88740e+01    9.99940e-01   -6.76010e-01
   9.43000e+04   9.99970e-01   -7.15980e-01    7.00400e-03    8.94130e+01    7.01130e-03    8.94420e+01    9.99850e-01   -6.81020e-01
   9.53000e+04   9.99640e-01   -7.01030e-01    7.07550e-03    8.90160e+01    7.11310e-03    8.92470e+01    9.99970e-01   -7.01980e-01
   9.63000e+04   9.99956e-01   -7.27000e-01    7.13147e-03    8.82790e+01    7.19337e-03    8.90250e+01    9.99536e-01   -6.85030e-01
   9.73000e+04   9.99710e-01   -7.26990e-01    7.22300e-03    8.94060e+01    7.25300e-03    8.90680e+01    9.99970e-01   -7.12000e-01
   9.83000e+04   9.99860e-01   -7.18020e-01    7.21180e-03    8.91100e+01    7.30190e-03    8.86570e+01    9.99930e-01   -7.17000e-01
   9.93000e+04   9.99939e-01   -7.40000e-01    7.37809e-03    8.94670e+01    7.33759e-03    8.89830e+01    9.99959e-01   -7.18000e-01
   1.00300e+05   9.99626e-01   -7.39050e-01    7.42687e-03    8.94550e+01    7.49547e-03    8.87400e+01    9.99966e-01   -7.18040e-01
   1.01300e+05   9.99477e-01   -7.61950e-01    7.50968e-03    8.87160e+01    7.51568e-03    8.91400e+01    9.99967e-01   -7.36060e-01
   1.02300e+05   9.99967e-01   -7.36140e-01    7.60117e-03    8.93200e+01    7.60387e-03    8.87070e+01    9.99697e-01   -7.68060e-01
   1.03300e+05   9.99259e-01   -8.08010e-01    7.67259e-03    8.89020e+01    7.71219e-03    8.94410e+01    9.99969e-01   -7.98890e-01
   1.04300e+05   9.99968e-01   -8.10900e-01    7.78339e-03    8.91820e+01    7.74329e-03    8.92860e+01    9.99438e-01   -7.42010e-01
   1.05300e+05   9.99320e-01   -7.62060e-01    7.77300e-03    8.88610e+01    7.80710e-03    8.86950e+01    9.99960e-01   -7.48030e-01
   1.06300e+05   9.99966e-01   -7.92020e-01    7.90257e-03    8.93400e+01    7.93837e-03    8.97600e+01    9.98786e-01   -7.65080e-01
   1.07300e+05   9.99900e-01   -8.02030e-01    7.87120e-03    8.92860e+01    8.03830e-03    8.89520e+01    9.99860e-01   -8.03040e-01
   1.08300e+05   9.99650e-01   -8.19000e-01    8.03700e-03    8.89260e+01    7.95980e-03    8.90560e+01    9.99960e-01   -8.24940e-01
   1.09300e+05   9.99960e-01   -8.18090e-01    8.12170e-03    8.87210e+01    8.12160e-03    8.85340e+01    9.98840e-01   -7.95040e-01
   1.10300e+05   9.99630e-01   -8.63940e-01    8.24740e-03    8.92530e+01    8.18910e-03    8.87690e+01    9.99960e-01   -8.16080e-01
   1.11300e+05   9.99540e-01   -8.34000e-01    8.20610e-03    8.88090e+01    8.30020e-03    8.87430e+01    9.99950e-01   -8.56880e-01
   1.12300e+05   9.99298e-01   -8.33070e-01    8.26009e-03    8.96880e+01    8.38389e-03    8.88920e+01    9.99958e-01   -7.96050e-01
   1.13300e+05   9.99435e-01   -8.68000e-01    8.28816e-03    8.87720e+01    8.50326e-03    8.87470e+01    9.99935e-01   -8.21990e-01
   1.14300e+05   9.99510e-01   -8.67990e-01    8.49490e-03    8.92600e+01    8.51250e-03    8.92600e+01    9.99960e-01   -8.19000e-01
   1.15300e+05   9.99960e-01   -8.61080e-01    8.57250e-03    8.90840e+01    8.54990e-03    8.88200e+01    9.99470e-01   -8.21030e-01
   1.16300e+05   9.99960e-01   -8.98990e-01    8.55460e-03    8.86940e+01    8.56450e-03    8.89780e+01    9.98470e-01   -8.35030e-01
   1.17300e+05   9.99960e-01   -8.94940e-01    8.73620e-03    8.91320e+01    8.74040e-03    8.89000e+01    9.99740e-01   -8.51060e-01
   1.18300e+05   9.99870e-01   -8.65030e-01    8.68210e-03    8.88770e+01    8.81790e-03    8.92450e+01    9.99910e-01   -8.81000e-01
   1.19300e+05   9.99850e-01   -8.81000e-01    8.84710e-03    8.93420e+01    8.93300e-03    8.86540e+01    9.99940e-01   -8.80890e-01
   1.20300e+05   9.99358e-01   -8.81020e-01    8.91418e-03    8.88530e+01    8.94828e-03    8.91410e+01    9.99958e-01   -8.28050e-01
   1.21300e+05   9.99880e-01   -8.91120e-01    8.90280e-03    8.87080e+01    9.00160e-03    8.88550e+01    9.99890e-01   -8.52030e-01
   1.22300e+05   9.99148e-01   -9.49930e-01    9.06018e-03    8.92590e+01    9.05308e-03    8.89340e+01    9.99958e-01   -8.67030e-01
   1.23300e+05   9.99530e-01   -9.15060e-01    9.12530e-03    8.89910e+01    9.19700e-03    8.92980e+01    9.99950e-01   -8.83030e-01
   1.24300e+05   9.99790e-01   -9.45060e-01    9.27190e-03    8.87790e+01    9.28890e-03    8.86440e+01    9.99930e-01   -8.98070e-01
   1.25300e+05   9.99946e-01   -9.74000e-01    9.27546e-03    8.84910e+01    9.26796e-03    8.89770e+01    9.99706e-01   -9.30970e-01
   1.26300e+05   9.99598e-01   -9.73910e-01    9.41198e-03    8.84440e+01    9.38708e-03    8.90710e+01    9.99948e-01   -9.14920e-01
   1.27300e+05   9.99910e-01   -9.27070e-01    9.47910e-03    8.86200e+01    9.41500e-03    8.86570e+01    9.99800e-01   -8.77070e-01
   1.28300e+05   9.99470e-01   -9.62090e-01    9.53190e-03    8.89200e+01    9.52550e-03    8.89260e+01    9.99950e-01   -9.10010e-01
   1.29300e+05   9.99936e-01   -1.00780e+00    9.54296e-03    8.92000e+01    9.63316e-03    8.93820e+01    9.99726e-01   -9.15080e-01
   1.30300e+05   9.99947e-01   -9.03150e-01    9.69347e-03    8.85430e+01    9.63377e-03    8.90770e+01    9.99457e-01   -9.54050e-01
   1.31300e+05   9.99897e-01   -9.79060e-01    9.75557e-03    8.91900e+01    9.85387e-03    8.91160e+01    9.99897e-01   -9.77850e-01
   1.32300e+05   9.99938e-01   -1.00990e+00    9.75848e-03    8.89180e+01    9.88828e-03    8.87020e+01    9.99478e-01   -9.02100e-01
   1.33300e+05   9.99940e-01   -9.69060e-01    9.84430e-03    8.86150e+01    9.89420e-03    8.88050e+01    9.99400e-01   -9.54000e-01
   1.34300e+05   9.99940e-01   -9.98940e-01    9.97190e-03    8.87390e+01    9.94670e-03    8.87040e+01    9.99670e-01   -9.53990e-01
   1.35300e+05   9.99875e-01   -9.70040e-01    1.00440e-02    8.89860e+01    1.00280e-02    8.89370e+01    9.99945e-01   -9.48010e-01
   1.36300e+05   9.98896e-01   -9.88990e-01    1.01570e-02    8.88890e+01    1.00670e-02    8.92110e+01    9.99946e-01   -9.53970e-01
   1.37300e+05   9.99360e-01   -9.86040e-01    1.01470e-02    8.86490e+01    1.02120e-02    8.80800e+01    9.99920e-01   -9.39040e-01
   1.38300e+05   9.99288e-01   -1.00390e+00    1.01740e-02    8.84740e+01    1.03040e-02    8.82240e+01    9.99918e-01   -9.61010e-01
   1.39300e+05   9.99940e-01   -9.66000e-01    1.02730e-02    8.86750e+01    1.03520e-02    8.90310e+01    9.98600e-01   -9.65970e-01
   1.40300e+05   9.99936e-01   -9.64070e-01    1.03660e-02    8.91520e+01    1.04890e-02    8.87450e+01    9.99466e-01   -9.49850e-01
   1.41300e+05   9.99940e-01   -9.99880e-01    1.04870e-02    8.93660e+01    1.05040e-02    8.85270e+01    9.98090e-01   -8.75050e-01
   1.42300e+05   9.99910e-01   -9.42080e-01    1.05490e-02    8.88400e+01    1.05080e-02    8.88930e+01    9.99880e-01   -9.00100e-01
   1.43300e+05   9.99490e-01   -9.83940e-01    1.05420e-02    8.85310e+01    1.06380e-02    8.91070e+01    9.99840e-01   -9.49090e-01
   1.44300e+05   9.99926e-01   -9.56020e-01    1.07160e-02    8.87590e+01    1.07100e-02    8.84270e+01    9.99536e-01   -9.93980e-01
