! Created Tue Nov  8 16:51:39 2022
# hz Z ri R 1
! 4 Port Network Data from SP1.SP block
! freq  reZ11  imZ11  reZ12  imZ12  reZ13  imZ13  reZ14  imZ14  
!       reZ21  imZ21  reZ22  imZ22  reZ23  imZ23  reZ24  imZ24  
!       reZ31  imZ31  reZ32  imZ32  reZ33  imZ33  reZ34  imZ34  
!       reZ41  imZ41  reZ42  imZ42  reZ43  imZ43  reZ44  imZ44  
!     
           1000000    1.23034894e-08        -39788.7338     1.23034894e-08        -39788.7362     1.23034989e-08        -39788.7362     1.23034953e-08        -39788.7369
                   1.23034876e-08        -39788.7362     1.23034903e-08        -39788.7338     1.23034969e-08        -39788.7369     1.23034889e-08        -39788.7362
                   1.23034979e-08        -39788.7362     1.23034873e-08        -39788.7369     1.23034979e-08        -39788.7338     1.23034944e-08        -39788.7362
                   1.23034915e-08        -39788.7369      1.2303494e-08        -39788.7362     1.23035023e-08        -39788.7362      1.2303496e-08        -39788.7338

        1122018.45   -2.65267551e-08        -35461.7459     -2.6526759e-08        -35461.7485    -2.65267578e-08        -35461.7485    -2.65267604e-08        -35461.7494
                  -2.65267519e-08        -35461.7485    -2.65267559e-08        -35461.7459    -2.65267626e-08        -35461.7494    -2.65267586e-08        -35461.7485
                  -2.65267504e-08        -35461.7485    -2.65267504e-08        -35461.7494    -2.65267575e-08        -35461.7459    -2.65267681e-08        -35461.7485
                  -2.65267505e-08        -35461.7494    -2.65267523e-08        -35461.7485    -2.65267572e-08        -35461.7485    -2.65267552e-08        -35461.7459

        1258925.41    6.65399375e-09        -31605.3138     6.65398457e-09        -31605.3167      6.6539828e-09        -31605.3167     6.65398161e-09        -31605.3177
                   6.65399225e-09        -31605.3167     6.65398159e-09        -31605.3138     6.65398292e-09        -31605.3177     6.65398159e-09        -31605.3167
                   6.65399406e-09        -31605.3167     6.65397985e-09        -31605.3177     6.65397985e-09        -31605.3138      6.6539692e-09        -31605.3167
                   6.65399332e-09        -31605.3177     6.65397995e-09        -31605.3167     6.65397776e-09        -31605.3167     6.65397494e-09        -31605.3138

        1412537.54    1.67372487e-08         -28168.265     1.67372641e-08        -28168.2683     1.67372493e-08        -28168.2683     1.67372579e-08        -28168.2694
                   1.67372507e-08        -28168.2683     1.67372654e-08         -28168.265     1.67372507e-08        -28168.2694     1.67372561e-08        -28168.2683
                   1.67372478e-08        -28168.2683     1.67372656e-08        -28168.2694     1.67372443e-08         -28168.265     1.67372549e-08        -28168.2683
                   1.67372477e-08        -28168.2694     1.67372607e-08        -28168.2683      1.6737249e-08        -28168.2683     1.67372529e-08         -28168.265

        1584893.19    8.28966457e-15         -25104.992     2.66453504e-15        -25104.9957     5.62512953e-15        -25104.9957     1.36187347e-14        -25104.9969
                   6.66133639e-15        -25104.9957     1.33226728e-15         -25104.992     5.32906911e-15        -25104.9969     1.33226728e-14        -25104.9957
                    7.1054263e-15        -25104.9957                 -0        -25104.9969      7.1054263e-15         -25104.992     1.06581395e-14        -25104.9957
                   3.48401803e-15        -25104.9969     1.74200902e-15        -25104.9957     3.48401803e-15        -25104.9957     1.04520541e-14         -25104.992

        1778279.41    2.22326179e-08        -22374.8469     2.22326182e-08        -22374.8511     2.22326173e-08        -22374.8511     2.22326155e-08        -22374.8525
                   2.22326217e-08        -22374.8511     2.22326177e-08        -22374.8469     2.22326163e-08        -22374.8525     2.22326177e-08        -22374.8511
                   2.22326151e-08        -22374.8511     2.22326187e-08        -22374.8525     2.22326116e-08        -22374.8469     2.22326116e-08        -22374.8511
                   2.22326201e-08        -22374.8525     2.22326172e-08        -22374.8511     2.22326156e-08        -22374.8511     2.22326099e-08        -22374.8469

        1995262.31   -4.41509586e-10        -19941.6025    -4.41493007e-10        -19941.6072    -4.41498632e-10        -19941.6072    -4.41503961e-10        -19941.6088
                  -4.41509311e-10        -19941.6072    -4.41499985e-10        -19941.6025    -4.41501317e-10        -19941.6088    -4.41506646e-10        -19941.6072
                  -4.41520494e-10        -19941.6072    -4.41495625e-10        -19941.6088    -4.41499177e-10        -19941.6025    -4.41492072e-10        -19941.6072
                  -4.41505403e-10        -19941.6088    -4.41499834e-10        -19941.6072    -4.41501217e-10        -19941.6072    -4.41505264e-10        -19941.6025

        2238721.14   -1.75348092e-09         -17772.971    -1.75347412e-09        -17772.9763    -1.75346967e-09        -17772.9763    -1.75347885e-09        -17772.9781
                  -1.75347644e-09        -17772.9763    -1.75347511e-09         -17772.971    -1.75346845e-09        -17772.9781    -1.75347511e-09        -17772.9763
                   -1.7534804e-09        -17772.9763    -1.75347329e-09        -17772.9781    -1.75347684e-09         -17772.971    -1.75346618e-09        -17772.9763
                  -1.75347666e-09        -17772.9781    -1.75347895e-09        -17772.9763    -1.75347895e-09        -17772.9763    -1.75347843e-09         -17772.971

        2511886.43   -5.57132299e-10        -15840.1761    -5.57139405e-10         -15840.182    -5.57135852e-10         -15840.182    -5.57137332e-10         -15840.184
                  -5.57132637e-10         -15840.182     -5.5714063e-10        -15840.1761    -5.57135301e-10         -15840.184    -5.57136633e-10         -15840.182
                  -5.57132798e-10         -15840.182    -5.57143456e-10         -15840.184    -5.57139904e-10        -15840.1761    -5.57136351e-10         -15840.182
                  -5.57133022e-10         -15840.184    -5.57141746e-10         -15840.182    -5.57135151e-10         -15840.182    -5.57141538e-10        -15840.1761

        2818382.93   -1.99147166e-09        -14117.5707    -1.99146721e-09        -14117.5773    -1.99146514e-09        -14117.5773     -1.9914681e-09        -14117.5795
                  -1.99147199e-09        -14117.5773      -1.991464e-09        -14117.5707      -1.991464e-09        -14117.5795    -1.99146932e-09        -14117.5773
                  -1.99146206e-09        -14117.5773    -1.99145495e-09        -14117.5795    -1.99146206e-09        -14117.5707    -1.99145851e-09        -14117.5773
                  -1.99147111e-09        -14117.5795    -1.99146688e-09        -14117.5773    -1.99146884e-09        -14117.5773    -1.99146594e-09        -14117.5707

        3162277.66      7.030673e-10        -12582.2968      7.0306434e-10        -12582.3043     7.03061675e-10        -12582.3043     7.03072925e-10        -12582.3067
                   7.03068863e-10        -12582.3043     7.03062202e-10        -12582.2968     7.03059537e-10        -12582.3067     7.03074192e-10        -12582.3043
                   7.03074515e-10        -12582.3043      7.0306741e-10        -12582.3067     7.03060304e-10        -12582.2968     7.03074515e-10        -12582.3043
                   7.03064205e-10        -12582.3067     7.03060574e-10        -12582.3043     7.03060574e-10        -12582.3043      7.0306365e-10        -12582.2968

        3548133.89    9.77296064e-10        -11213.9824     9.77299617e-10        -11213.9908      9.7729784e-10        -11213.9908     9.77298136e-10        -11213.9936
                   9.77295616e-10        -11213.9908     9.77300945e-10        -11213.9824     9.77295616e-10        -11213.9936     9.77296948e-10        -11213.9908
                   9.77301066e-10        -11213.9908     9.77297514e-10        -11213.9936     9.77297514e-10        -11213.9824     9.77286856e-10        -11213.9908
                   9.77300396e-10        -11213.9936     9.77303266e-10        -11213.9908     9.77301709e-10        -11213.9908     9.77297868e-10        -11213.9824

        3981071.71     1.1089938e-10        -9994.47074     1.10900565e-10        -9994.48012     1.10895532e-10        -9994.48012     1.10900861e-10        -9994.48324
                   1.10903102e-10        -9994.48012     1.10903102e-10        -9994.47074     1.10895108e-10        -9994.48324     1.10901769e-10        -9994.48012
                   1.10908512e-10        -9994.48012     1.10904959e-10        -9994.48324     1.10904959e-10        -9994.47074     1.10897853e-10        -9994.48012
                   1.10899805e-10        -9994.48324     1.10902544e-10        -9994.48012     1.10896996e-10        -9994.48012     1.10899666e-10        -9994.47074

        4466835.92    1.03620748e-14        -8907.57961     1.42108454e-14        -8907.59014     1.24344898e-14        -8907.59014     1.53950826e-14        -8907.59365
                   6.66132417e-15        -8907.59014     1.33226483e-14        -8907.57961     9.32585383e-15        -8907.59365     1.06581187e-14        -8907.59014
                   1.77635474e-14        -8907.59014     1.06581284e-14        -8907.59365     1.06581284e-14        -8907.57961     1.06581284e-14        -8907.59014
                   7.41705875e-15        -8907.59365     9.88941167e-15        -8907.59014     2.47235292e-15        -8907.59014     1.23617646e-14        -8907.57961

        5011872.34    6.99728589e-10        -7938.88666     6.99730958e-10        -7938.89847     6.99735398e-10        -7938.89847     6.99729181e-10        -7938.90241
                   6.99723762e-10        -7938.89847     6.99731755e-10        -7938.88666      6.9973442e-10        -7938.90241     6.99730423e-10        -7938.89847
                   6.99720129e-10        -7938.89847     6.99727234e-10        -7938.90241     6.99730787e-10        -7938.88666     6.99730787e-10        -7938.89847
                   6.99728517e-10        -7938.90241     6.99730373e-10        -7938.89847     6.99730373e-10        -7938.89847     6.99733739e-10        -7938.88666

        5623413.25   -5.00223938e-10        -7075.53792    -5.00227194e-10        -7075.55117    -5.00238148e-10        -7075.55117    -5.00229859e-10        -7075.55558
                  -5.00224863e-10        -7075.55117    -5.00226195e-10        -7075.53792    -5.00238186e-10        -7075.55558     -5.0022886e-10        -7075.55117
                  -5.00231807e-10        -7075.55117    -5.00231807e-10        -7075.55558    -5.00238913e-10        -7075.53792     -5.0023536e-10        -7075.55117
                  -5.00226554e-10        -7075.55558    -5.00226242e-10        -7075.55117    -5.00236061e-10        -7075.55117     -5.0023316e-10        -7075.53792

        6309573.44   -1.76605759e-10        -6306.07726    -1.76595397e-10        -6306.09212    -1.76604575e-10        -6306.09212    -1.76599246e-10        -6306.09708
                  -1.76603325e-10        -6306.09212    -1.76600661e-10        -6306.07726     -1.7660599e-10        -6306.09708    -1.76596664e-10        -6306.09212
                  -1.76604981e-10        -6306.09212    -1.76587217e-10        -6306.09708     -1.7659077e-10        -6306.07726    -1.76601428e-10        -6306.09212
                  -1.76605448e-10        -6306.09708    -1.76603559e-10        -6306.09212    -1.76600058e-10        -6306.09212    -1.76594391e-10        -6306.07726

        7079457.84    2.45489449e-10        -5620.29441     2.45482935e-10        -5620.31109     2.45490929e-10        -5620.31109     2.45491817e-10        -5620.31665
                   2.45492997e-10        -5620.31109     2.45487668e-10        -5620.29441     2.45495662e-10        -5620.31665     2.45495662e-10        -5620.31109
                   2.45498892e-10        -5620.31109     2.45488234e-10        -5620.31665     2.45481128e-10        -5620.29441     2.45484681e-10        -5620.31109
                   2.45489075e-10        -5620.31665     2.45482592e-10        -5620.31109     2.45488832e-10        -5620.31109     2.45488104e-10        -5620.29441

        7943282.35   -3.89996268e-10        -5009.08946    -3.89993603e-10        -5009.10818    -3.89999228e-10        -5009.10818    -3.89997452e-10        -5009.11441
                  -3.89998776e-10        -5009.10818    -3.89993447e-10        -5009.08946    -3.89993447e-10        -5009.11441    -3.89998776e-10        -5009.10818
                  -3.89987029e-10        -5009.10818    -3.89983476e-10        -5009.11441    -3.89990582e-10        -5009.08946     -3.9000124e-10        -5009.10818
                  -3.89998309e-10        -5009.11441    -3.89992262e-10        -5009.10818    -3.89990872e-10        -5009.10818    -3.89996366e-10        -5009.08946

        8912509.38   -1.10631809e-10        -4464.35208    -1.10635066e-10        -4464.37308    -1.10641579e-10        -4464.37308    -1.10638914e-10        -4464.38008
                  -1.10634576e-10        -4464.37308    -1.10641238e-10        -4464.35208    -1.10646567e-10        -4464.38008     -1.1064257e-10        -4464.37308
                  -1.10641642e-10        -4464.37308    -1.10630984e-10        -4464.38008    -1.10634536e-10        -4464.35208    -1.10638089e-10        -4464.37308
                  -1.10632422e-10        -4464.38008    -1.10639683e-10        -4464.37308     -1.1064464e-10        -4464.37308    -1.10641641e-10        -4464.35208

          10000000     1.4060529e-10        -3978.85394     1.40599369e-10         -3978.8775     1.40603809e-10         -3978.8775     1.40600849e-10        -3978.88536
                   1.40607379e-10         -3978.8775     1.40598053e-10        -3978.85394     1.40611376e-10        -3978.88536     1.40604714e-10         -3978.8775
                   1.40601364e-10         -3978.8775     1.40594259e-10        -3978.88536     1.40594259e-10        -3978.85394     1.40604917e-10         -3978.8775
                   1.40609735e-10        -3978.88536     1.40602831e-10         -3978.8775     1.40616084e-10         -3978.8775     1.40606416e-10        -3978.85394

        11220184.5   -2.93185306e-10        -3546.15278    -2.93178201e-10        -3546.17921    -2.93181457e-10        -3546.17921    -2.93182937e-10        -3546.18803
                  -2.93189587e-10        -3546.17921     -2.9318559e-10        -3546.15278    -2.93181593e-10        -3546.18803    -2.93188255e-10        -3546.17921
                  -2.93192616e-10        -3546.17921    -2.93181958e-10        -3546.18803    -2.93185511e-10        -3546.15278    -2.93189063e-10        -3546.17921
                  -2.93189929e-10        -3546.18803    -2.93191169e-10        -3546.17921      -2.931892e-10        -3546.17921     -2.9319292e-10        -3546.15278

        12589254.1    1.77443511e-10        -3160.50691     1.77439662e-10        -3160.53657     1.77444103e-10        -3160.53657     1.77443511e-10        -3160.54646
                   1.77448429e-10        -3160.53657     1.77440435e-10        -3160.50691     1.77447096e-10        -3160.54646     1.77449761e-10        -3160.53657
                   1.77435067e-10        -3160.53657     1.77438619e-10        -3160.54646     1.77442172e-10        -3160.50691     1.77449277e-10        -3160.53657
                   1.77440687e-10        -3160.54646     1.77440132e-10        -3160.53657     1.77438377e-10        -3160.53657      1.7744373e-10        -3160.50691

        14125375.4   -1.05717412e-10        -2816.79904    -1.05718004e-10        -2816.83232    -1.05713563e-10        -2816.83232    -1.05712971e-10        -2816.84342
                   -1.0571455e-10        -2816.83232    -1.05719879e-10        -2816.79904    -1.05718547e-10        -2816.84342    -1.05707889e-10        -2816.83232
                  -1.05706194e-10        -2816.83232    -1.05706194e-10        -2816.84342    -1.05702641e-10        -2816.79904    -1.05699088e-10        -2816.83232
                  -1.05716037e-10        -2816.84342     -1.0571562e-10        -2816.83232    -1.05712493e-10        -2816.83232    -1.05711244e-10        -2816.79904

        15848931.9    4.19894744e-11        -2510.46839     4.19847375e-11        -2510.50573     4.19805927e-11        -2510.50573     4.19814808e-11        -2510.51818
                   4.19893017e-11        -2510.50573     4.19893017e-11        -2510.46839     4.19799761e-11        -2510.51818      4.1985305e-11        -2510.50573
                   4.19782404e-11        -2510.50573     4.19888984e-11        -2510.51818     4.19888984e-11        -2510.46839     4.19675824e-11        -2510.50573
                   4.19870051e-11        -2510.51818     4.19840097e-11        -2510.50573     4.19826161e-11        -2510.50573     4.19778108e-11        -2510.46839

        17782794.1   -1.00043383e-10        -2237.45012    -1.00046936e-10        -2237.49202     -1.0004516e-10        -2237.49202    -1.00046048e-10        -2237.50599
                  -1.00045974e-10        -2237.49202    -1.00047307e-10        -2237.45012    -1.00048639e-10        -2237.50599    -1.00047307e-10        -2237.49202
                  -1.00046096e-10        -2237.49202    -1.00046096e-10        -2237.50599    -1.00049649e-10        -2237.45012    -1.00046096e-10        -2237.49202
                  -1.00043038e-10        -2237.50599    -1.00044897e-10        -2237.49202    -1.00042413e-10        -2237.49202    -1.00038056e-10        -2237.45012

        19952623.1   -6.62320834e-11        -1994.12146    -6.62255702e-11        -1994.16848    -6.62326755e-11        -1994.16848    -6.62320834e-11        -1994.18415
                  -6.62295796e-11        -1994.16848    -6.62295796e-11        -1994.12146    -6.62335763e-11        -1994.18415    -6.62269152e-11        -1994.16848
                  -6.62245744e-11        -1994.16848    -6.62210218e-11        -1994.18415    -6.62210218e-11        -1994.12146    -6.62245744e-11        -1994.16848
                  -6.62237968e-11        -1994.18415    -6.62232763e-11        -1994.16848    -6.62299182e-11        -1994.16848     -6.6223929e-11        -1994.12146

        22387211.4    1.75563353e-11        -1777.25358     1.75489339e-11        -1777.30633     1.75486379e-11        -1777.30633     1.75415326e-11        -1777.32392
                   1.75583618e-11        -1777.30633     1.75503686e-11        -1777.25358     1.75490364e-11        -1777.32392     1.75423754e-11        -1777.30633
                   1.75569899e-11        -1777.30633     1.75498847e-11        -1777.32392     1.75427795e-11        -1777.25358     1.75427795e-11        -1777.30633
                   1.75489472e-11        -1777.32392     1.75448273e-11        -1777.30633     1.75468005e-11        -1777.30633     1.75403605e-11        -1777.25358

        25118864.3   -2.22978516e-11        -1583.96878    -2.22990358e-11        -1584.02797    -2.22880819e-11        -1584.02797    -2.22883779e-11        -1584.04769
                  -2.22980158e-11        -1584.02797     -2.2299348e-11        -1583.96878    -2.22913549e-11        -1584.04769    -2.22900228e-11        -1584.02797
                  -2.23066557e-11        -1584.02797    -2.22995505e-11        -1584.04769     -2.2295998e-11        -1583.96878    -2.22888928e-11        -1584.02797
                  -2.23000274e-11        -1584.04769    -2.22979912e-11        -1584.02797    -2.22891981e-11        -1584.02797    -2.22918826e-11        -1583.96878

